
T07CC 000:275 SEGGER J-Link V4.96d Log File (0000ms, 0260ms total)
T07CC 000:275 DLL Compiled: Jan 29 2015 11:45:37 (0000ms, 0260ms total)
T07CC 000:275 Logging started @ 2015-07-06 11:15 (0000ms, 0260ms total)
T07CC 000:275 JLINK_SetWarnOutHandler(...) (0000ms, 0260ms total)
T07CC 000:275 JLINK_OpenEx(...)
Firmware: J-Link Ultra Rev.1 compiled Dec  3 2013 14:27:53
Hardware: V1.00
S/N: 281100043
Feature(s): RDI, FlashBP, FlashDL, JFlash, GDB  returns O.K. (0257ms, 0517ms total)
T07CC 000:532 JLINK_SetErrorOutHandler(...) (0000ms, 0517ms total)
T07CC 000:532 JLINK_ExecCommand("ProjectFile = "C:\Users\SergeevMV\Desktop\PION3\JLinkSettings.ini"", ...)  returns 0x00 (0002ms, 0519ms total)
T07CC 000:536 JLINK_ExecCommand("Device = STM32F103RE", ...)Device "STM32F103RE" selected.  returns 0x00 (0005ms, 0524ms total)
T07CC 000:541 JLINK_ExecCommand("DisableConnectionTimeout", ...)  returns 0x01 (0000ms, 0524ms total)
T07CC 000:541 JLINK_GetHardwareVersion()  returns 0x2710 (0000ms, 0524ms total)
T07CC 000:541 JLINK_GetDLLVersion()  returns 49604 (0000ms, 0524ms total)
T07CC 000:541 JLINK_GetFirmwareString(...) (0000ms, 0524ms total)
T07CC 000:556 JLINK_GetDLLVersion()  returns 49604 (0000ms, 0524ms total)
T07CC 000:556 JLINK_GetCompileDateTime() (0000ms, 0524ms total)
T07CC 000:560 JLINK_GetFirmwareString(...) (0000ms, 0524ms total)
T07CC 000:563 JLINK_GetHardwareVersion()  returns 0x2710 (0000ms, 0524ms total)
T07CC 000:575 JLINK_TIF_Select(JLINKARM_TIF_JTAG)  returns 0x00 (0003ms, 0527ms total)
T07CC 000:578 JLINK_SetSpeed(50000) (0000ms, 0527ms total)
T07CC 000:578 JLINK_GetIdData(...) >0x2F8 JTAG>TotalIRLen = 9, IRPrint = 0x0011 >0x30 JTAG> >0x210 JTAG> >0x40 JTAG> >0x40 JTAG> >0x40 JTAG> >0x30 JTAG> >0x40 JTAG> >0x40 JTAG> >0x40 JTAG> >0x40 JTAG> >0x40 JTAG> >0x40 JTAG> >0x40 JTAG> >0x40 JTAG> >0x40 JTAG> >0x40 JTAG> >0x2F8 JTAG>TotalIRLen = 9, IRPrint = 0x0011 >0x30 JTAG> >0x210 JTAG> >0x70 JTAG> >0x40 JTAG> >0x40 JTAG> >0x40 JTAG> >0x50 JTAG> >0x80 JTAG> >0x40 JTAG> >0x30 JTAG> >0x40 JTAG> >0x40 JTAG> >0x30 JTAG> >0x40 JTAG> >0x50 JTAG>
Found Cortex-M3 r1p1, Little endian. -- CPU_WriteMem(4 bytes @ 0xE0002000) -- CPU_ReadMem(4 bytes @ 0xE000EDF0) -- CPU_WriteMem(4 bytes @ 0xE000EDF0) -- CPU_ReadMem(4 bytes @ 0xE0002000)FPUnit: 6 code (BP) slots and 2 literal slots -- CPU_ReadMem(4 bytes @ 0xE000EDFC) -- CPU_WriteMem(4 bytes @ 0xE000EDFC) -- CPU_ReadMem(4 bytes @ 0xE0001000) -- CPU_WriteMem(4 bytes @ 0xE0001000) -- CPU_ReadMem(4 bytes @ 0xE000ED88) -- CPU_WriteMem(4 bytes @ 0xE000ED88) -- CPU_ReadMem(4 bytes @ 0xE000ED88)
 -- CPU_WriteMem(4 bytes @ 0xE000ED88) -- CPU_ReadMem(4 bytes @ 0xE00FF010)TPIU fitted. -- CPU_ReadMem(4 bytes @ 0xE00FF014)ETM fitted. -- CPU_ReadMem(4 bytes @ 0xE00FF018) ScanLen=9 NumDevices=2 aId[0]=0x3BA00477 aIrRead[0]=0 aScanLen[0]=0 aScanRead[0]=0 (0035ms, 0562ms total)
T07CC 000:613 JLINK_JTAG_GetDeviceID(DeviceIndex = 0)  returns 0x3BA00477 (0000ms, 0562ms total)
T07CC 000:613 JLINK_JTAG_GetDeviceInfo(DeviceIndex = 0)  returns 0x00 (0000ms, 0562ms total)
T07CC 000:613 JLINK_JTAG_GetDeviceID(DeviceIndex = 1)  returns 0x6414041 (0000ms, 0562ms total)
T07CC 000:613 JLINK_JTAG_GetDeviceInfo(DeviceIndex = 1)  returns 0x00 (0000ms, 0562ms total)
T07CC 000:613 JLINK_GetDLLVersion()  returns 49604 (0000ms, 0562ms total)
T07CC 000:613 JLINK_CORE_GetFound()  returns 0x30000FF (0000ms, 0562ms total)
T07CC 000:613 JLINK_GetDebugInfo(0x100) -- Value=0xE00FF003  returns 0x00 (0000ms, 0562ms total)
T07CC 000:615 JLINK_ReadMem (0xE00FF000, 0x0020 Bytes, ...) -- CPU is running -- CPU_ReadMem(32 bytes @ 0xE00FF000) - Data: 03 F0 F0 FF 03 20 F0 FF 03 30 F0 FF 03 10 F0 FF ...  returns 0x00 (0001ms, 0563ms total)
T07CC 000:616 JLINK_ReadMem (0xE000EFF0, 0x0010 Bytes, ...) -- CPU is running -- CPU_ReadMem(16 bytes @ 0xE000EFF0) - Data: 0D 00 00 00 E0 00 00 00 05 00 00 00 B1 00 00 00  returns 0x00 (0000ms, 0563ms total)
T07CC 000:616 JLINK_ReadMem (0xE000EFD0, 0x0020 Bytes, ...) -- CPU is running -- CPU_ReadMem(32 bytes @ 0xE000EFD0) - Data: 04 00 00 00 00 00 00 00 00 00 00 00 00 00 00 00 ...  returns 0x00 (0001ms, 0564ms total)
T07CC 000:617 JLINK_ReadMem (0xE0001FF0, 0x0010 Bytes, ...) -- CPU is running -- CPU_ReadMem(16 bytes @ 0xE0001FF0) - Data: 0D 00 00 00 E0 00 00 00 05 00 00 00 B1 00 00 00  returns 0x00 (0000ms, 0564ms total)
T07CC 000:617 JLINK_ReadMem (0xE0001FD0, 0x0020 Bytes, ...) -- CPU is running -- CPU_ReadMem(32 bytes @ 0xE0001FD0) - Data: 04 00 00 00 00 00 00 00 00 00 00 00 00 00 00 00 ...  returns 0x00 (0001ms, 0565ms total)
T07CC 000:618 JLINK_ReadMem (0xE0002FF0, 0x0010 Bytes, ...) -- CPU is running -- CPU_ReadMem(16 bytes @ 0xE0002FF0) - Data: 0D 00 00 00 E0 00 00 00 05 00 00 00 B1 00 00 00  returns 0x00 (0001ms, 0566ms total)
T07CC 000:619 JLINK_ReadMem (0xE0002FD0, 0x0020 Bytes, ...) -- CPU is running -- CPU_ReadMem(32 bytes @ 0xE0002FD0) - Data: 04 00 00 00 00 00 00 00 00 00 00 00 00 00 00 00 ...  returns 0x00 (0000ms, 0566ms total)
T07CC 000:619 JLINK_ReadMem (0xE0000FF0, 0x0010 Bytes, ...) -- CPU is running -- CPU_ReadMem(16 bytes @ 0xE0000FF0) - Data: 0D 00 00 00 E0 00 00 00 05 00 00 00 B1 00 00 00  returns 0x00 (0001ms, 0567ms total)
T07CC 000:620 JLINK_ReadMem (0xE0000FD0, 0x0020 Bytes, ...) -- CPU is running -- CPU_ReadMem(32 bytes @ 0xE0000FD0) - Data: 04 00 00 00 00 00 00 00 00 00 00 00 00 00 00 00 ...  returns 0x00 (0000ms, 0567ms total)
T07CC 000:620 JLINK_ReadMem (0xE0040FF0, 0x0010 Bytes, ...) -- CPU is running -- CPU_ReadMem(16 bytes @ 0xE0040FF0) - Data: 0D 00 00 00 90 00 00 00 05 00 00 00 B1 00 00 00  returns 0x00 (0001ms, 0568ms total)
T07CC 000:621 JLINK_ReadMem (0xE0040FD0, 0x0020 Bytes, ...) -- CPU is running -- CPU_ReadMem(32 bytes @ 0xE0040FD0) - Data: 04 00 00 00 00 00 00 00 00 00 00 00 00 00 00 00 ...  returns 0x00 (0000ms, 0568ms total)
T07CC 000:621 JLINK_ReadMem (0xE0041FF0, 0x0010 Bytes, ...) -- CPU is running -- CPU_ReadMem(16 bytes @ 0xE0041FF0) - Data: 0D 00 00 00 90 00 00 00 05 00 00 00 B1 00 00 00  returns 0x00 (0001ms, 0569ms total)
T07CC 000:622 JLINK_ReadMem (0xE0041FD0, 0x0020 Bytes, ...) -- CPU is running -- CPU_ReadMem(32 bytes @ 0xE0041FD0) - Data: 04 00 00 00 00 00 00 00 00 00 00 00 00 00 00 00 ...  returns 0x00 (0001ms, 0570ms total)
T07CC 000:623 JLINK_ReadMemU32(0xE000ED00, 0x0001 Items, ...) -- CPU is running -- CPU_ReadMem(4 bytes @ 0xE000ED00) - Data: 31 C2 1F 41  returns 0x01 (0000ms, 0570ms total)
T07CC 000:623 JLINK_SetResetType(JLINKARM_RESET_TYPE_NORMAL)  returns JLINKARM_RESET_TYPE_NORMAL (0000ms, 0570ms total)
T07CC 000:623 JLINK_Reset() -- CPU is running -- CPU_WriteMem(4 bytes @ 0xE000EDF0) -- CPU is running -- CPU_WriteMem(4 bytes @ 0xE000EDFC) -- CPU is running -- CPU_WriteMem(4 bytes @ 0xE000ED0C) -- CPU is running -- CPU_ReadMem(4 bytes @ 0xE000EDF0) -- CPU is running -- CPU_ReadMem(4 bytes @ 0xE000EDF0) -- CPU is running -- CPU_WriteMem(4 bytes @ 0xE000EDF0) -- CPU is running -- CPU_WriteMem(4 bytes @ 0xE000EDFC) -- CPU is running -- CPU_ReadMem(4 bytes @ 0xE000EDF0) >0x80 JTAG> >0x40 JTAG> >0x30 JTAG>
 >0x40 JTAG> >0x50 JTAG> >0x40 JTAG> -- CPU_WriteMem(4 bytes @ 0xE000EDFC) -- CPU_WriteMem(4 bytes @ 0xE0001028) -- CPU_WriteMem(4 bytes @ 0xE0001038) -- CPU_WriteMem(4 bytes @ 0xE0001048) -- CPU_WriteMem(4 bytes @ 0xE0001058) -- CPU_WriteMem(4 bytes @ 0xE0002000) -- CPU_ReadMem(4 bytes @ 0xE000EDFC) -- CPU_ReadMem(4 bytes @ 0xE0001000) (0023ms, 0593ms total)
T07CC 000:646 JLINK_Halt()  returns 0x00 (0000ms, 0593ms total)
T07CC 000:646 JLINK_IsHalted()  returns TRUE (0000ms, 0593ms total)
T07CC 000:646 JLINK_ReadMemU32(0xE000EDF0, 0x0001 Items, ...) -- CPU_ReadMem(4 bytes @ 0xE000EDF0) - Data: 03 00 03 00  returns 0x01 (0000ms, 0593ms total)
T07CC 000:646 JLINK_WriteU32(0xE000EDF0, 0xA05F0003) -- CPU_WriteMem(4 bytes @ 0xE000EDF0)  returns 0x00 (0001ms, 0594ms total)
T07CC 000:647 JLINK_WriteU32(0xE000EDFC, 0x01000000) -- CPU_WriteMem(4 bytes @ 0xE000EDFC)  returns 0x00 (0000ms, 0594ms total)
T07CC 000:654 JLINK_GetHWStatus(...)  returns 0x00 (0001ms, 0595ms total)
T07CC 000:661 JLINK_GetNumBPUnits(Type = 0xFFFFFF00)  returns 0x06 (0000ms, 0595ms total)
T07CC 000:661 JLINK_GetNumBPUnits(Type = 0xF0)  returns 0x2000 (0000ms, 0595ms total)
T07CC 000:661 JLINK_GetNumWPUnits()  returns 0x04 (0000ms, 0595ms total)
T07CC 000:665 JLINK_GetSpeed()  returns 0x61A8 (0000ms, 0595ms total)
T07CC 000:668 JLINK_ReadMemU32(0xE000E004, 0x0001 Items, ...) -- CPU_ReadMem(4 bytes @ 0xE000E004) - Data: 01 00 00 00  returns 0x01 (0001ms, 0596ms total)
T07CC 000:669 JLINK_ReadMemU32(0xE000E004, 0x0001 Items, ...) -- CPU_ReadMem(4 bytes @ 0xE000E004) - Data: 01 00 00 00  returns 0x01 (0001ms, 0597ms total)
T07CC 000:670 JLINK_WriteMem(0xE0001000, 0x001C Bytes, ...) - Data: 01 00 00 00 00 00 00 00 00 00 00 00 00 00 00 00 ... -- CPU_WriteMem(28 bytes @ 0xE0001000)  returns 0x1C (0001ms, 0598ms total)
T07CC 000:671 JLINK_ReadMem (0xE0001000, 0x001C Bytes, ...) -- CPU_ReadMem(28 bytes @ 0xE0001000) - Data: 01 00 00 40 00 00 00 00 00 00 00 00 00 00 00 00 ...  returns 0x00 (0000ms, 0598ms total)
T07CC 000:671 JLINK_Halt()  returns 0x00 (0001ms, 0599ms total)
T07CC 000:672 JLINK_IsHalted()  returns TRUE (0000ms, 0599ms total)
T07CC 000:674 JLINK_WriteMem(0x20000000, 0x0164 Bytes, ...) - Data: 00 BE 0A E0 0D 78 2D 06 68 40 08 24 40 00 00 D3 ... -- CPU_WriteMem(356 bytes @ 0x20000000)  returns 0x164 (0003ms, 0602ms total)
T07CC 000:677 JLINK_WriteReg(R0, 0x08000000)  returns 0x00 (0000ms, 0602ms total)
T07CC 000:677 JLINK_WriteReg(R1, 0x00B71B00)  returns 0x00 (0000ms, 0602ms total)
T07CC 000:677 JLINK_WriteReg(R2, 0x00000001)  returns 0x00 (0000ms, 0602ms total)
T07CC 000:677 JLINK_WriteReg(R3, 0x00000000)  returns 0x00 (0000ms, 0602ms total)
T07CC 000:677 JLINK_WriteReg(R4, 0x00000000)  returns 0x00 (0000ms, 0602ms total)
T07CC 000:677 JLINK_WriteReg(R5, 0x00000000)  returns 0x00 (0000ms, 0602ms total)
T07CC 000:677 JLINK_WriteReg(R6, 0x00000000)  returns 0x00 (0000ms, 0602ms total)
T07CC 000:677 JLINK_WriteReg(R7, 0x00000000)  returns 0x00 (0000ms, 0602ms total)
T07CC 000:677 JLINK_WriteReg(R8, 0x00000000)  returns 0x00 (0000ms, 0602ms total)
T07CC 000:677 JLINK_WriteReg(R9, 0x20000160)  returns 0x00 (0000ms, 0602ms total)
T07CC 000:677 JLINK_WriteReg(R10, 0x00000000)  returns 0x00 (0000ms, 0602ms total)
T07CC 000:677 JLINK_WriteReg(R11, 0x00000000)  returns 0x00 (0000ms, 0602ms total)
T07CC 000:677 JLINK_WriteReg(R12, 0x00000000)  returns 0x00 (0000ms, 0602ms total)
T07CC 000:677 JLINK_WriteReg(R13 (SP), 0x20000800)  returns 0x00 (0000ms, 0602ms total)
T07CC 000:677 JLINK_WriteReg(R14, 0x20000001)  returns 0x00 (0000ms, 0602ms total)
T07CC 000:677 JLINK_WriteReg(R15 (PC), 0x20000038)  returns 0x00 (0000ms, 0602ms total)
T07CC 000:677 JLINK_WriteReg(XPSR, 0x01000000)  returns 0x00 (0000ms, 0602ms total)
T07CC 000:677 JLINK_WriteReg(MSP, 0x20000800)  returns 0x00 (0000ms, 0602ms total)
T07CC 000:677 JLINK_WriteReg(PSP, 0x20000800)  returns 0x00 (0000ms, 0602ms total)
T07CC 000:677 JLINK_WriteReg(CFBP, 0x00000000)  returns 0x00 (0000ms, 0602ms total)
T07CC 000:677 JLINK_SetBPEx(Addr = 0x20000000, Type = 0xFFFFFFF2) -- CPU_ReadMem(2 bytes @ 0x20000000)  returns 0x00000001 (0001ms, 0603ms total)
T07CC 000:678 JLINK_Go() -- CPU_WriteMem(2 bytes @ 0x20000000) -- CPU_WriteMem(4 bytes @ 0xE0002008) -- CPU_WriteMem(4 bytes @ 0xE000200C) -- CPU_WriteMem(4 bytes @ 0xE0002010) -- CPU_WriteMem(4 bytes @ 0xE0002014) -- CPU_WriteMem(4 bytes @ 0xE0002018) -- CPU_WriteMem(4 bytes @ 0xE000201C) -- CPU_WriteMem(4 bytes @ 0xE0001004) (0003ms, 0606ms total)
T07CC 000:681 JLINK_IsHalted() -- CPU_ReadMem(2 bytes @ 0x20000000)  returns TRUE (0002ms, 0608ms total)
T07CC 000:683 JLINK_ReadReg(R15 (PC))  returns 0x20000000 (0001ms, 0607ms total)
T07CC 000:684 JLINK_ClrBPEx(BPHandle = 0x00000001)  returns 0x00 (0000ms, 0607ms total)
T07CC 000:684 JLINK_ReadReg(R0)  returns 0x00000000 (0000ms, 0607ms total)
T07CC 000:684 JLINK_WriteReg(R0, 0x08000000)  returns 0x00 (0000ms, 0607ms total)
T07CC 000:684 JLINK_WriteReg(R1, 0x00B71B00)  returns 0x00 (0000ms, 0607ms total)
T07CC 000:684 JLINK_WriteReg(R2, 0x00000001)  returns 0x00 (0000ms, 0607ms total)
T07CC 000:684 JLINK_WriteReg(R3, 0x00000000)  returns 0x00 (0000ms, 0607ms total)
T07CC 000:684 JLINK_WriteReg(R4, 0x00000000)  returns 0x00 (0000ms, 0607ms total)
T07CC 000:684 JLINK_WriteReg(R5, 0x00000000)  returns 0x00 (0000ms, 0607ms total)
T07CC 000:684 JLINK_WriteReg(R6, 0x00000000)  returns 0x00 (0000ms, 0607ms total)
T07CC 000:684 JLINK_WriteReg(R7, 0x00000000)  returns 0x00 (0000ms, 0607ms total)
T07CC 000:684 JLINK_WriteReg(R8, 0x00000000)  returns 0x00 (0000ms, 0607ms total)
T07CC 000:684 JLINK_WriteReg(R9, 0x20000160)  returns 0x00 (0000ms, 0607ms total)
T07CC 000:684 JLINK_WriteReg(R10, 0x00000000)  returns 0x00 (0000ms, 0607ms total)
T07CC 000:684 JLINK_WriteReg(R11, 0x00000000)  returns 0x00 (0000ms, 0607ms total)
T07CC 000:684 JLINK_WriteReg(R12, 0x00000000)  returns 0x00 (0000ms, 0607ms total)
T07CC 000:684 JLINK_WriteReg(R13 (SP), 0x20000800)  returns 0x00 (0000ms, 0607ms total)
T07CC 000:684 JLINK_WriteReg(R14, 0x20000001)  returns 0x00 (0000ms, 0607ms total)
T07CC 000:684 JLINK_WriteReg(R15 (PC), 0x2000007C)  returns 0x00 (0000ms, 0607ms total)
T07CC 000:684 JLINK_WriteReg(XPSR, 0x01000000)  returns 0x00 (0000ms, 0607ms total)
T07CC 000:684 JLINK_WriteReg(MSP, 0x20000800)  returns 0x00 (0000ms, 0607ms total)
T07CC 000:684 JLINK_WriteReg(PSP, 0x20000800)  returns 0x00 (0000ms, 0607ms total)
T07CC 000:684 JLINK_WriteReg(CFBP, 0x00000000)  returns 0x00 (0000ms, 0607ms total)
T07CC 000:684 JLINK_SetBPEx(Addr = 0x20000000, Type = 0xFFFFFFF2)  returns 0x00000002 (0000ms, 0607ms total)
T07CC 000:684 JLINK_Go() (0002ms, 0609ms total)
T07CC 000:686 JLINK_IsHalted()  returns FALSE (0000ms, 0609ms total)
T07CC 000:709 JLINK_IsHalted() -- CPU_ReadMem(2 bytes @ 0x20000000)  returns TRUE (0002ms, 0611ms total)
T07CC 000:711 JLINK_ReadReg(R15 (PC))  returns 0x20000000 (0000ms, 0609ms total)
T07CC 000:711 JLINK_ClrBPEx(BPHandle = 0x00000002)  returns 0x00 (0000ms, 0609ms total)
T07CC 000:711 JLINK_ReadReg(R0)  returns 0x00000000 (0000ms, 0609ms total)
T07CC 000:762 JLINK_WriteReg(R0, 0x00000001)  returns 0x00 (0000ms, 0609ms total)
T07CC 000:762 JLINK_WriteReg(R1, 0x00B71B00)  returns 0x00 (0000ms, 0609ms total)
T07CC 000:762 JLINK_WriteReg(R2, 0x00000001)  returns 0x00 (0000ms, 0609ms total)
T07CC 000:762 JLINK_WriteReg(R3, 0x00000000)  returns 0x00 (0000ms, 0609ms total)
T07CC 000:762 JLINK_WriteReg(R4, 0x00000000)  returns 0x00 (0000ms, 0609ms total)
T07CC 000:762 JLINK_WriteReg(R5, 0x00000000)  returns 0x00 (0000ms, 0609ms total)
T07CC 000:762 JLINK_WriteReg(R6, 0x00000000)  returns 0x00 (0000ms, 0609ms total)
T07CC 000:762 JLINK_WriteReg(R7, 0x00000000)  returns 0x00 (0000ms, 0609ms total)
T07CC 000:762 JLINK_WriteReg(R8, 0x00000000)  returns 0x00 (0000ms, 0609ms total)
T07CC 000:762 JLINK_WriteReg(R9, 0x20000160)  returns 0x00 (0000ms, 0609ms total)
T07CC 000:762 JLINK_WriteReg(R10, 0x00000000)  returns 0x00 (0000ms, 0609ms total)
T07CC 000:762 JLINK_WriteReg(R11, 0x00000000)  returns 0x00 (0000ms, 0609ms total)
T07CC 000:762 JLINK_WriteReg(R12, 0x00000000)  returns 0x00 (0000ms, 0609ms total)
T07CC 000:762 JLINK_WriteReg(R13 (SP), 0x20000800)  returns 0x00 (0000ms, 0609ms total)
T07CC 000:762 JLINK_WriteReg(R14, 0x20000001)  returns 0x00 (0000ms, 0609ms total)
T07CC 000:762 JLINK_WriteReg(R15 (PC), 0x2000006A)  returns 0x00 (0000ms, 0609ms total)
T07CC 000:762 JLINK_WriteReg(XPSR, 0x01000000)  returns 0x00 (0000ms, 0609ms total)
T07CC 000:762 JLINK_WriteReg(MSP, 0x20000800)  returns 0x00 (0000ms, 0609ms total)
T07CC 000:762 JLINK_WriteReg(PSP, 0x20000800)  returns 0x00 (0001ms, 0610ms total)
T07CC 000:763 JLINK_WriteReg(CFBP, 0x00000000)  returns 0x00 (0000ms, 0610ms total)
T07CC 000:763 JLINK_SetBPEx(Addr = 0x20000000, Type = 0xFFFFFFF2)  returns 0x00000003 (0000ms, 0610ms total)
T07CC 000:763 JLINK_Go() (0001ms, 0611ms total)
T07CC 000:764 JLINK_IsHalted() -- CPU_ReadMem(2 bytes @ 0x20000000)  returns TRUE (0002ms, 0613ms total)
T07CC 000:766 JLINK_ReadReg(R15 (PC))  returns 0x20000000 (0000ms, 0611ms total)
T07CC 000:766 JLINK_ClrBPEx(BPHandle = 0x00000003)  returns 0x00 (0000ms, 0611ms total)
T07CC 000:766 JLINK_ReadReg(R0)  returns 0x00000000 (0000ms, 0611ms total)
T07CC 000:769 JLINK_WriteMem(0x20000000, 0x0164 Bytes, ...) - Data: 00 BE 0A E0 0D 78 2D 06 68 40 08 24 40 00 00 D3 ... -- CPU_WriteMem(356 bytes @ 0x20000000)  returns 0x164 (0002ms, 0613ms total)
T07CC 000:771 JLINK_WriteReg(R0, 0x08000000)  returns 0x00 (0000ms, 0613ms total)
T07CC 000:771 JLINK_WriteReg(R1, 0x00B71B00)  returns 0x00 (0000ms, 0613ms total)
T07CC 000:771 JLINK_WriteReg(R2, 0x00000002)  returns 0x00 (0000ms, 0613ms total)
T07CC 000:771 JLINK_WriteReg(R3, 0x00000000)  returns 0x00 (0000ms, 0613ms total)
T07CC 000:771 JLINK_WriteReg(R4, 0x00000000)  returns 0x00 (0000ms, 0613ms total)
T07CC 000:771 JLINK_WriteReg(R5, 0x00000000)  returns 0x00 (0000ms, 0613ms total)
T07CC 000:771 JLINK_WriteReg(R6, 0x00000000)  returns 0x00 (0000ms, 0613ms total)
T07CC 000:771 JLINK_WriteReg(R7, 0x00000000)  returns 0x00 (0000ms, 0613ms total)
T07CC 000:771 JLINK_WriteReg(R8, 0x00000000)  returns 0x00 (0000ms, 0613ms total)
T07CC 000:771 JLINK_WriteReg(R9, 0x20000160)  returns 0x00 (0000ms, 0613ms total)
T07CC 000:771 JLINK_WriteReg(R10, 0x00000000)  returns 0x00 (0000ms, 0613ms total)
T07CC 000:771 JLINK_WriteReg(R11, 0x00000000)  returns 0x00 (0000ms, 0613ms total)
T07CC 000:771 JLINK_WriteReg(R12, 0x00000000)  returns 0x00 (0000ms, 0613ms total)
T07CC 000:771 JLINK_WriteReg(R13 (SP), 0x20000800)  returns 0x00 (0000ms, 0613ms total)
T07CC 000:771 JLINK_WriteReg(R14, 0x20000001)  returns 0x00 (0000ms, 0613ms total)
T07CC 000:771 JLINK_WriteReg(R15 (PC), 0x20000038)  returns 0x00 (0000ms, 0613ms total)
T07CC 000:771 JLINK_WriteReg(XPSR, 0x01000000)  returns 0x00 (0000ms, 0613ms total)
T07CC 000:771 JLINK_WriteReg(MSP, 0x20000800)  returns 0x00 (0000ms, 0613ms total)
T07CC 000:771 JLINK_WriteReg(PSP, 0x20000800)  returns 0x00 (0000ms, 0613ms total)
T07CC 000:771 JLINK_WriteReg(CFBP, 0x00000000)  returns 0x00 (0000ms, 0613ms total)
T07CC 000:771 JLINK_SetBPEx(Addr = 0x20000000, Type = 0xFFFFFFF2) -- CPU_ReadMem(2 bytes @ 0x20000000)  returns 0x00000004 (0001ms, 0614ms total)
T07CC 000:772 JLINK_Go() -- CPU_WriteMem(2 bytes @ 0x20000000) (0003ms, 0617ms total)
T07CC 000:775 JLINK_IsHalted() -- CPU_ReadMem(2 bytes @ 0x20000000)  returns TRUE (0002ms, 0619ms total)
T07CC 000:777 JLINK_ReadReg(R15 (PC))  returns 0x20000000 (0000ms, 0617ms total)
T07CC 000:777 JLINK_ClrBPEx(BPHandle = 0x00000004)  returns 0x00 (0000ms, 0617ms total)
T07CC 000:777 JLINK_ReadReg(R0)  returns 0x00000000 (0000ms, 0617ms total)
T07CC 000:777 JLINK_WriteMem(0x20000164, 0x0400 Bytes, ...) - Data: D0 F6 00 20 95 6A 00 08 8D 1A 00 08 8F 1A 00 08 ... -- CPU_WriteMem(1024 bytes @ 0x20000164)  returns 0x400 (0004ms, 0621ms total)
T07CC 000:781 JLINK_WriteReg(R0, 0x08000000)  returns 0x00 (0000ms, 0621ms total)
T07CC 000:781 JLINK_WriteReg(R1, 0x00000400)  returns 0x00 (0000ms, 0621ms total)
T07CC 000:781 JLINK_WriteReg(R2, 0x20000164)  returns 0x00 (0000ms, 0621ms total)
T07CC 000:781 JLINK_WriteReg(R3, 0x00000000)  returns 0x00 (0000ms, 0621ms total)
T07CC 000:781 JLINK_WriteReg(R4, 0x00000000)  returns 0x00 (0000ms, 0621ms total)
T07CC 000:781 JLINK_WriteReg(R5, 0x00000000)  returns 0x00 (0000ms, 0621ms total)
T07CC 000:781 JLINK_WriteReg(R6, 0x00000000)  returns 0x00 (0000ms, 0621ms total)
T07CC 000:781 JLINK_WriteReg(R7, 0x00000000)  returns 0x00 (0000ms, 0621ms total)
T07CC 000:781 JLINK_WriteReg(R8, 0x00000000)  returns 0x00 (0000ms, 0621ms total)
T07CC 000:781 JLINK_WriteReg(R9, 0x20000160)  returns 0x00 (0000ms, 0621ms total)
T07CC 000:781 JLINK_WriteReg(R10, 0x00000000)  returns 0x00 (0000ms, 0621ms total)
T07CC 000:781 JLINK_WriteReg(R11, 0x00000000)  returns 0x00 (0000ms, 0621ms total)
T07CC 000:781 JLINK_WriteReg(R12, 0x00000000)  returns 0x00 (0000ms, 0621ms total)
T07CC 000:781 JLINK_WriteReg(R13 (SP), 0x20000800)  returns 0x00 (0000ms, 0621ms total)
T07CC 000:781 JLINK_WriteReg(R14, 0x20000001)  returns 0x00 (0000ms, 0621ms total)
T07CC 000:781 JLINK_WriteReg(R15 (PC), 0x200000F4)  returns 0x00 (0000ms, 0621ms total)
T07CC 000:781 JLINK_WriteReg(XPSR, 0x01000000)  returns 0x00 (0000ms, 0621ms total)
T07CC 000:781 JLINK_WriteReg(MSP, 0x20000800)  returns 0x00 (0000ms, 0621ms total)
T07CC 000:781 JLINK_WriteReg(PSP, 0x20000800)  returns 0x00 (0000ms, 0621ms total)
T07CC 000:781 JLINK_WriteReg(CFBP, 0x00000000)  returns 0x00 (0000ms, 0621ms total)
T07CC 000:781 JLINK_SetBPEx(Addr = 0x20000000, Type = 0xFFFFFFF2)  returns 0x00000005 (0000ms, 0621ms total)
T07CC 000:781 JLINK_Go() (0001ms, 0622ms total)
T07CC 000:782 JLINK_IsHalted()  returns FALSE (0000ms, 0622ms total)
T07CC 000:787 JLINK_IsHalted()  returns FALSE (0000ms, 0622ms total)
T07CC 000:788 JLINK_IsHalted()  returns FALSE (0000ms, 0622ms total)
T07CC 000:789 JLINK_IsHalted()  returns FALSE (0000ms, 0622ms total)
T07CC 000:790 JLINK_IsHalted()  returns FALSE (0000ms, 0622ms total)
T07CC 000:791 JLINK_IsHalted()  returns FALSE (0000ms, 0622ms total)
T07CC 000:792 JLINK_IsHalted()  returns FALSE (0000ms, 0622ms total)
T07CC 000:793 JLINK_IsHalted()  returns FALSE (0000ms, 0622ms total)
T07CC 000:794 JLINK_IsHalted()  returns FALSE (0000ms, 0622ms total)
T07CC 000:795 JLINK_IsHalted()  returns FALSE (0000ms, 0622ms total)
T07CC 000:796 JLINK_IsHalted()  returns FALSE (0000ms, 0622ms total)
T07CC 000:797 JLINK_IsHalted()  returns FALSE (0000ms, 0622ms total)
T07CC 000:798 JLINK_IsHalted()  returns FALSE (0000ms, 0622ms total)
T07CC 000:799 JLINK_IsHalted()  returns FALSE (0000ms, 0622ms total)
T07CC 000:800 JLINK_IsHalted()  returns FALSE (0000ms, 0622ms total)
T07CC 000:801 JLINK_IsHalted()  returns FALSE (0000ms, 0622ms total)
T07CC 000:808 JLINK_IsHalted()  returns FALSE (0000ms, 0622ms total)
T07CC 000:809 JLINK_IsHalted()  returns FALSE (0000ms, 0622ms total)
T07CC 000:810 JLINK_IsHalted()  returns FALSE (0000ms, 0622ms total)
T07CC 000:811 JLINK_IsHalted()  returns FALSE (0000ms, 0622ms total)
T07CC 000:812 JLINK_IsHalted()  returns FALSE (0000ms, 0622ms total)
T07CC 000:813 JLINK_IsHalted() -- CPU_ReadMem(2 bytes @ 0x20000000)  returns TRUE (0002ms, 0624ms total)
T07CC 000:815 JLINK_ReadReg(R15 (PC))  returns 0x20000000 (0000ms, 0622ms total)
T07CC 000:815 JLINK_ClrBPEx(BPHandle = 0x00000005)  returns 0x00 (0000ms, 0622ms total)
T07CC 000:815 JLINK_ReadReg(R0)  returns 0x00000000 (0000ms, 0622ms total)
T07CC 000:815 JLINK_WriteMem(0x20000164, 0x0400 Bytes, ...) - Data: 8D F8 02 00 10 21 97 48 04 F0 B3 FF 69 46 95 48 ... -- CPU_WriteMem(1024 bytes @ 0x20000164)  returns 0x400 (0004ms, 0626ms total)
T07CC 000:819 JLINK_WriteReg(R0, 0x08000400)  returns 0x00 (0000ms, 0626ms total)
T07CC 000:819 JLINK_WriteReg(R1, 0x00000400)  returns 0x00 (0000ms, 0626ms total)
T07CC 000:819 JLINK_WriteReg(R2, 0x20000164)  returns 0x00 (0000ms, 0626ms total)
T07CC 000:819 JLINK_WriteReg(R3, 0x00000000)  returns 0x00 (0000ms, 0626ms total)
T07CC 000:819 JLINK_WriteReg(R4, 0x00000000)  returns 0x00 (0000ms, 0626ms total)
T07CC 000:819 JLINK_WriteReg(R5, 0x00000000)  returns 0x00 (0000ms, 0626ms total)
T07CC 000:819 JLINK_WriteReg(R6, 0x00000000)  returns 0x00 (0000ms, 0626ms total)
T07CC 000:819 JLINK_WriteReg(R7, 0x00000000)  returns 0x00 (0000ms, 0626ms total)
T07CC 000:819 JLINK_WriteReg(R8, 0x00000000)  returns 0x00 (0000ms, 0626ms total)
T07CC 000:819 JLINK_WriteReg(R9, 0x20000160)  returns 0x00 (0000ms, 0626ms total)
T07CC 000:819 JLINK_WriteReg(R10, 0x00000000)  returns 0x00 (0000ms, 0626ms total)
T07CC 000:819 JLINK_WriteReg(R11, 0x00000000)  returns 0x00 (0000ms, 0626ms total)
T07CC 000:819 JLINK_WriteReg(R12, 0x00000000)  returns 0x00 (0000ms, 0626ms total)
T07CC 000:819 JLINK_WriteReg(R13 (SP), 0x20000800)  returns 0x00 (0000ms, 0626ms total)
T07CC 000:819 JLINK_WriteReg(R14, 0x20000001)  returns 0x00 (0000ms, 0626ms total)
T07CC 000:819 JLINK_WriteReg(R15 (PC), 0x200000F4)  returns 0x00 (0000ms, 0626ms total)
T07CC 000:819 JLINK_WriteReg(XPSR, 0x01000000)  returns 0x00 (0000ms, 0626ms total)
T07CC 000:819 JLINK_WriteReg(MSP, 0x20000800)  returns 0x00 (0000ms, 0626ms total)
T07CC 000:819 JLINK_WriteReg(PSP, 0x20000800)  returns 0x00 (0000ms, 0626ms total)
T07CC 000:819 JLINK_WriteReg(CFBP, 0x00000000)  returns 0x00 (0000ms, 0626ms total)
T07CC 000:819 JLINK_SetBPEx(Addr = 0x20000000, Type = 0xFFFFFFF2)  returns 0x00000006 (0000ms, 0626ms total)
T07CC 000:819 JLINK_Go() (0001ms, 0627ms total)
T07CC 000:820 JLINK_IsHalted()  returns FALSE (0001ms, 0628ms total)
T07CC 000:822 JLINK_IsHalted()  returns FALSE (0000ms, 0627ms total)
T07CC 000:823 JLINK_IsHalted()  returns FALSE (0000ms, 0627ms total)
T07CC 000:824 JLINK_IsHalted()  returns FALSE (0000ms, 0627ms total)
T07CC 000:825 JLINK_IsHalted()  returns FALSE (0000ms, 0627ms total)
T07CC 000:826 JLINK_IsHalted()  returns FALSE (0000ms, 0627ms total)
T07CC 000:827 JLINK_IsHalted()  returns FALSE (0000ms, 0627ms total)
T07CC 000:828 JLINK_IsHalted()  returns FALSE (0000ms, 0627ms total)
T07CC 000:829 JLINK_IsHalted()  returns FALSE (0000ms, 0627ms total)
T07CC 000:830 JLINK_IsHalted()  returns FALSE (0000ms, 0627ms total)
T07CC 000:831 JLINK_IsHalted()  returns FALSE (0000ms, 0627ms total)
T07CC 000:832 JLINK_IsHalted()  returns FALSE (0000ms, 0627ms total)
T07CC 000:833 JLINK_IsHalted()  returns FALSE (0000ms, 0627ms total)
T07CC 000:834 JLINK_IsHalted()  returns FALSE (0000ms, 0627ms total)
T07CC 000:835 JLINK_IsHalted()  returns FALSE (0000ms, 0627ms total)
T07CC 000:836 JLINK_IsHalted()  returns FALSE (0000ms, 0627ms total)
T07CC 000:837 JLINK_IsHalted()  returns FALSE (0000ms, 0627ms total)
T07CC 000:838 JLINK_IsHalted()  returns FALSE (0000ms, 0627ms total)
T07CC 000:839 JLINK_IsHalted()  returns FALSE (0000ms, 0627ms total)
T07CC 000:840 JLINK_IsHalted()  returns FALSE (0000ms, 0627ms total)
T07CC 000:841 JLINK_IsHalted()  returns FALSE (0000ms, 0627ms total)
T07CC 000:842 JLINK_IsHalted()  returns FALSE (0000ms, 0627ms total)
T07CC 000:843 JLINK_IsHalted()  returns FALSE (0000ms, 0627ms total)
T07CC 000:844 JLINK_IsHalted()  returns FALSE (0000ms, 0627ms total)
T07CC 000:845 JLINK_IsHalted()  returns FALSE (0000ms, 0627ms total)
T07CC 000:846 JLINK_IsHalted()  returns FALSE (0000ms, 0627ms total)
T07CC 000:847 JLINK_IsHalted()  returns FALSE (0000ms, 0627ms total)
T07CC 000:848 JLINK_IsHalted()  returns FALSE (0000ms, 0627ms total)
T07CC 000:849 JLINK_IsHalted()  returns FALSE (0000ms, 0627ms total)
T07CC 000:850 JLINK_IsHalted()  returns FALSE (0000ms, 0627ms total)
T07CC 000:851 JLINK_IsHalted()  returns FALSE (0000ms, 0627ms total)
T07CC 000:852 JLINK_IsHalted() -- CPU_ReadMem(2 bytes @ 0x20000000)  returns TRUE (0002ms, 0629ms total)
T07CC 000:854 JLINK_ReadReg(R15 (PC))  returns 0x20000000 (0000ms, 0627ms total)
T07CC 000:854 JLINK_ClrBPEx(BPHandle = 0x00000006)  returns 0x00 (0000ms, 0627ms total)
T07CC 000:854 JLINK_ReadReg(R0)  returns 0x00000000 (0000ms, 0627ms total)
T07CC 000:855 JLINK_WriteMem(0x20000164, 0x0400 Bytes, ...) - Data: 08 46 0B F0 F8 FB A4 4A 00 21 A4 A0 0B F0 43 FC ... -- CPU_WriteMem(1024 bytes @ 0x20000164)  returns 0x400 (0003ms, 0630ms total)
T07CC 000:858 JLINK_WriteReg(R0, 0x08000800)  returns 0x00 (0001ms, 0631ms total)
T07CC 000:859 JLINK_WriteReg(R1, 0x00000400)  returns 0x00 (0000ms, 0631ms total)
T07CC 000:859 JLINK_WriteReg(R2, 0x20000164)  returns 0x00 (0000ms, 0631ms total)
T07CC 000:859 JLINK_WriteReg(R3, 0x00000000)  returns 0x00 (0000ms, 0631ms total)
T07CC 000:859 JLINK_WriteReg(R4, 0x00000000)  returns 0x00 (0000ms, 0631ms total)
T07CC 000:859 JLINK_WriteReg(R5, 0x00000000)  returns 0x00 (0000ms, 0631ms total)
T07CC 000:859 JLINK_WriteReg(R6, 0x00000000)  returns 0x00 (0000ms, 0631ms total)
T07CC 000:859 JLINK_WriteReg(R7, 0x00000000)  returns 0x00 (0000ms, 0631ms total)
T07CC 000:859 JLINK_WriteReg(R8, 0x00000000)  returns 0x00 (0000ms, 0631ms total)
T07CC 000:859 JLINK_WriteReg(R9, 0x20000160)  returns 0x00 (0000ms, 0631ms total)
T07CC 000:859 JLINK_WriteReg(R10, 0x00000000)  returns 0x00 (0000ms, 0631ms total)
T07CC 000:859 JLINK_WriteReg(R11, 0x00000000)  returns 0x00 (0000ms, 0631ms total)
T07CC 000:859 JLINK_WriteReg(R12, 0x00000000)  returns 0x00 (0000ms, 0631ms total)
T07CC 000:859 JLINK_WriteReg(R13 (SP), 0x20000800)  returns 0x00 (0000ms, 0631ms total)
T07CC 000:859 JLINK_WriteReg(R14, 0x20000001)  returns 0x00 (0000ms, 0631ms total)
T07CC 000:859 JLINK_WriteReg(R15 (PC), 0x200000F4)  returns 0x00 (0000ms, 0631ms total)
T07CC 000:859 JLINK_WriteReg(XPSR, 0x01000000)  returns 0x00 (0000ms, 0631ms total)
T07CC 000:859 JLINK_WriteReg(MSP, 0x20000800)  returns 0x00 (0000ms, 0631ms total)
T07CC 000:859 JLINK_WriteReg(PSP, 0x20000800)  returns 0x00 (0000ms, 0631ms total)
T07CC 000:859 JLINK_WriteReg(CFBP, 0x00000000)  returns 0x00 (0000ms, 0631ms total)
T07CC 000:859 JLINK_SetBPEx(Addr = 0x20000000, Type = 0xFFFFFFF2)  returns 0x00000007 (0000ms, 0631ms total)
T07CC 000:859 JLINK_Go() (0002ms, 0633ms total)
T07CC 000:861 JLINK_IsHalted()  returns FALSE (0000ms, 0633ms total)
T07CC 000:863 JLINK_IsHalted()  returns FALSE (0000ms, 0633ms total)
T07CC 000:866 JLINK_IsHalted()  returns FALSE (0000ms, 0633ms total)
T07CC 000:867 JLINK_IsHalted()  returns FALSE (0000ms, 0633ms total)
T07CC 000:868 JLINK_IsHalted()  returns FALSE (0000ms, 0633ms total)
T07CC 000:869 JLINK_IsHalted()  returns FALSE (0000ms, 0633ms total)
T07CC 000:870 JLINK_IsHalted()  returns FALSE (0000ms, 0633ms total)
T07CC 000:871 JLINK_IsHalted()  returns FALSE (0000ms, 0633ms total)
T07CC 000:872 JLINK_IsHalted()  returns FALSE (0000ms, 0633ms total)
T07CC 000:873 JLINK_IsHalted()  returns FALSE (0000ms, 0633ms total)
T07CC 000:874 JLINK_IsHalted()  returns FALSE (0000ms, 0633ms total)
T07CC 000:875 JLINK_IsHalted()  returns FALSE (0000ms, 0633ms total)
T07CC 000:876 JLINK_IsHalted()  returns FALSE (0000ms, 0633ms total)
T07CC 000:877 JLINK_IsHalted()  returns FALSE (0000ms, 0633ms total)
T07CC 000:880 JLINK_IsHalted()  returns FALSE (0000ms, 0633ms total)
T07CC 000:881 JLINK_IsHalted()  returns FALSE (0000ms, 0633ms total)
T07CC 000:882 JLINK_IsHalted()  returns FALSE (0000ms, 0633ms total)
T07CC 000:883 JLINK_IsHalted()  returns FALSE (0000ms, 0633ms total)
T07CC 000:884 JLINK_IsHalted()  returns FALSE (0000ms, 0633ms total)
T07CC 000:885 JLINK_IsHalted()  returns FALSE (0000ms, 0633ms total)
T07CC 000:886 JLINK_IsHalted()  returns FALSE (0000ms, 0633ms total)
T07CC 000:887 JLINK_IsHalted()  returns FALSE (0000ms, 0633ms total)
T07CC 000:888 JLINK_IsHalted()  returns FALSE (0000ms, 0633ms total)
T07CC 000:889 JLINK_IsHalted()  returns FALSE (0000ms, 0633ms total)
T07CC 000:890 JLINK_IsHalted()  returns FALSE (0000ms, 0633ms total)
T07CC 000:891 JLINK_IsHalted()  returns FALSE (0000ms, 0633ms total)
T07CC 000:892 JLINK_IsHalted() -- CPU_ReadMem(2 bytes @ 0x20000000)  returns TRUE (0002ms, 0635ms total)
T07CC 000:894 JLINK_ReadReg(R15 (PC))  returns 0x20000000 (0000ms, 0633ms total)
T07CC 000:894 JLINK_ClrBPEx(BPHandle = 0x00000007)  returns 0x00 (0000ms, 0633ms total)
T07CC 000:894 JLINK_ReadReg(R0)  returns 0x00000000 (0000ms, 0633ms total)
T07CC 000:895 JLINK_WriteMem(0x20000164, 0x0400 Bytes, ...) - Data: 21 46 00 20 02 F0 26 FF 03 20 03 F0 43 F9 05 46 ... -- CPU_WriteMem(1024 bytes @ 0x20000164)  returns 0x400 (0004ms, 0637ms total)
T07CC 000:899 JLINK_WriteReg(R0, 0x08000C00)  returns 0x00 (0000ms, 0637ms total)
T07CC 000:899 JLINK_WriteReg(R1, 0x00000400)  returns 0x00 (0000ms, 0637ms total)
T07CC 000:899 JLINK_WriteReg(R2, 0x20000164)  returns 0x00 (0000ms, 0637ms total)
T07CC 000:899 JLINK_WriteReg(R3, 0x00000000)  returns 0x00 (0000ms, 0637ms total)
T07CC 000:899 JLINK_WriteReg(R4, 0x00000000)  returns 0x00 (0000ms, 0637ms total)
T07CC 000:899 JLINK_WriteReg(R5, 0x00000000)  returns 0x00 (0000ms, 0637ms total)
T07CC 000:899 JLINK_WriteReg(R6, 0x00000000)  returns 0x00 (0000ms, 0637ms total)
T07CC 000:899 JLINK_WriteReg(R7, 0x00000000)  returns 0x00 (0000ms, 0637ms total)
T07CC 000:899 JLINK_WriteReg(R8, 0x00000000)  returns 0x00 (0001ms, 0638ms total)
T07CC 000:900 JLINK_WriteReg(R9, 0x20000160)  returns 0x00 (0000ms, 0638ms total)
T07CC 000:900 JLINK_WriteReg(R10, 0x00000000)  returns 0x00 (0000ms, 0638ms total)
T07CC 000:900 JLINK_WriteReg(R11, 0x00000000)  returns 0x00 (0000ms, 0638ms total)
T07CC 000:900 JLINK_WriteReg(R12, 0x00000000)  returns 0x00 (0000ms, 0638ms total)
T07CC 000:900 JLINK_WriteReg(R13 (SP), 0x20000800)  returns 0x00 (0000ms, 0638ms total)
T07CC 000:900 JLINK_WriteReg(R14, 0x20000001)  returns 0x00 (0000ms, 0638ms total)
T07CC 000:900 JLINK_WriteReg(R15 (PC), 0x200000F4)  returns 0x00 (0000ms, 0638ms total)
T07CC 000:900 JLINK_WriteReg(XPSR, 0x01000000)  returns 0x00 (0000ms, 0638ms total)
T07CC 000:900 JLINK_WriteReg(MSP, 0x20000800)  returns 0x00 (0000ms, 0638ms total)
T07CC 000:900 JLINK_WriteReg(PSP, 0x20000800)  returns 0x00 (0000ms, 0638ms total)
T07CC 000:900 JLINK_WriteReg(CFBP, 0x00000000)  returns 0x00 (0000ms, 0638ms total)
T07CC 000:900 JLINK_SetBPEx(Addr = 0x20000000, Type = 0xFFFFFFF2)  returns 0x00000008 (0000ms, 0638ms total)
T07CC 000:900 JLINK_Go() (0001ms, 0639ms total)
T07CC 000:901 JLINK_IsHalted()  returns FALSE (0001ms, 0640ms total)
T07CC 000:903 JLINK_IsHalted()  returns FALSE (0000ms, 0639ms total)
T07CC 000:904 JLINK_IsHalted()  returns FALSE (0000ms, 0639ms total)
T07CC 000:905 JLINK_IsHalted()  returns FALSE (0000ms, 0639ms total)
T07CC 000:906 JLINK_IsHalted()  returns FALSE (0000ms, 0639ms total)
T07CC 000:907 JLINK_IsHalted()  returns FALSE (0000ms, 0639ms total)
T07CC 000:908 JLINK_IsHalted()  returns FALSE (0000ms, 0639ms total)
T07CC 000:909 JLINK_IsHalted()  returns FALSE (0000ms, 0639ms total)
T07CC 000:910 JLINK_IsHalted()  returns FALSE (0000ms, 0639ms total)
T07CC 000:911 JLINK_IsHalted()  returns FALSE (0000ms, 0639ms total)
T07CC 000:920 JLINK_IsHalted()  returns FALSE (0000ms, 0639ms total)
T07CC 000:921 JLINK_IsHalted()  returns FALSE (0000ms, 0639ms total)
T07CC 000:922 JLINK_IsHalted()  returns FALSE (0000ms, 0639ms total)
T07CC 000:923 JLINK_IsHalted()  returns FALSE (0000ms, 0639ms total)
T07CC 000:924 JLINK_IsHalted()  returns FALSE (0000ms, 0639ms total)
T07CC 000:925 JLINK_IsHalted()  returns FALSE (0000ms, 0639ms total)
T07CC 000:926 JLINK_IsHalted()  returns FALSE (0000ms, 0639ms total)
T07CC 000:927 JLINK_IsHalted()  returns FALSE (0000ms, 0639ms total)
T07CC 000:928 JLINK_IsHalted()  returns FALSE (0000ms, 0639ms total)
T07CC 000:929 JLINK_IsHalted()  returns FALSE (0000ms, 0639ms total)
T07CC 000:930 JLINK_IsHalted()  returns FALSE (0000ms, 0639ms total)
T07CC 000:931 JLINK_IsHalted()  returns FALSE (0000ms, 0639ms total)
T07CC 000:932 JLINK_IsHalted()  returns FALSE (0000ms, 0639ms total)
T07CC 000:933 JLINK_IsHalted() -- CPU_ReadMem(2 bytes @ 0x20000000)  returns TRUE (0002ms, 0641ms total)
T07CC 000:935 JLINK_ReadReg(R15 (PC))  returns 0x20000000 (0000ms, 0639ms total)
T07CC 000:935 JLINK_ClrBPEx(BPHandle = 0x00000008)  returns 0x00 (0000ms, 0639ms total)
T07CC 000:935 JLINK_ReadReg(R0)  returns 0x00000000 (0000ms, 0639ms total)
T07CC 000:936 JLINK_WriteMem(0x20000164, 0x0400 Bytes, ...) - Data: 9B F9 05 D2 FB 49 50 46 16 F0 C8 F9 82 46 01 E0 ... -- CPU_WriteMem(1024 bytes @ 0x20000164)  returns 0x400 (0004ms, 0644ms total)
T07CC 000:940 JLINK_WriteReg(R0, 0x08001000)  returns 0x00 (0000ms, 0644ms total)
T07CC 000:940 JLINK_WriteReg(R1, 0x00000400)  returns 0x00 (0000ms, 0644ms total)
T07CC 000:940 JLINK_WriteReg(R2, 0x20000164)  returns 0x00 (0000ms, 0644ms total)
T07CC 000:940 JLINK_WriteReg(R3, 0x00000000)  returns 0x00 (0000ms, 0644ms total)
T07CC 000:940 JLINK_WriteReg(R4, 0x00000000)  returns 0x00 (0000ms, 0644ms total)
T07CC 000:940 JLINK_WriteReg(R5, 0x00000000)  returns 0x00 (0000ms, 0644ms total)
T07CC 000:940 JLINK_WriteReg(R6, 0x00000000)  returns 0x00 (0000ms, 0644ms total)
T07CC 000:940 JLINK_WriteReg(R7, 0x00000000)  returns 0x00 (0000ms, 0644ms total)
T07CC 000:941 JLINK_WriteReg(R8, 0x00000000)  returns 0x00 (0000ms, 0645ms total)
T07CC 000:941 JLINK_WriteReg(R9, 0x20000160)  returns 0x00 (0000ms, 0645ms total)
T07CC 000:941 JLINK_WriteReg(R10, 0x00000000)  returns 0x00 (0000ms, 0645ms total)
T07CC 000:941 JLINK_WriteReg(R11, 0x00000000)  returns 0x00 (0000ms, 0645ms total)
T07CC 000:941 JLINK_WriteReg(R12, 0x00000000)  returns 0x00 (0000ms, 0645ms total)
T07CC 000:941 JLINK_WriteReg(R13 (SP), 0x20000800)  returns 0x00 (0000ms, 0645ms total)
T07CC 000:941 JLINK_WriteReg(R14, 0x20000001)  returns 0x00 (0000ms, 0645ms total)
T07CC 000:941 JLINK_WriteReg(R15 (PC), 0x200000F4)  returns 0x00 (0000ms, 0645ms total)
T07CC 000:941 JLINK_WriteReg(XPSR, 0x01000000)  returns 0x00 (0000ms, 0645ms total)
T07CC 000:941 JLINK_WriteReg(MSP, 0x20000800)  returns 0x00 (0000ms, 0645ms total)
T07CC 000:941 JLINK_WriteReg(PSP, 0x20000800)  returns 0x00 (0000ms, 0645ms total)
T07CC 000:941 JLINK_WriteReg(CFBP, 0x00000000)  returns 0x00 (0000ms, 0645ms total)
T07CC 000:941 JLINK_SetBPEx(Addr = 0x20000000, Type = 0xFFFFFFF2)  returns 0x00000009 (0000ms, 0645ms total)
T07CC 000:941 JLINK_Go() (0001ms, 0646ms total)
T07CC 000:942 JLINK_IsHalted()  returns FALSE (0001ms, 0647ms total)
T07CC 000:946 JLINK_IsHalted()  returns FALSE (0000ms, 0646ms total)
T07CC 000:947 JLINK_IsHalted()  returns FALSE (0000ms, 0646ms total)
T07CC 000:948 JLINK_IsHalted()  returns FALSE (0000ms, 0646ms total)
T07CC 000:949 JLINK_IsHalted()  returns FALSE (0000ms, 0646ms total)
T07CC 000:950 JLINK_IsHalted()  returns FALSE (0000ms, 0646ms total)
T07CC 000:951 JLINK_IsHalted()  returns FALSE (0000ms, 0646ms total)
T07CC 000:952 JLINK_IsHalted()  returns FALSE (0000ms, 0646ms total)
T07CC 000:953 JLINK_IsHalted()  returns FALSE (0000ms, 0646ms total)
T07CC 000:958 JLINK_IsHalted()  returns FALSE (0000ms, 0646ms total)
T07CC 000:959 JLINK_IsHalted()  returns FALSE (0000ms, 0646ms total)
T07CC 000:960 JLINK_IsHalted()  returns FALSE (0000ms, 0646ms total)
T07CC 000:961 JLINK_IsHalted()  returns FALSE (0000ms, 0646ms total)
T07CC 000:962 JLINK_IsHalted()  returns FALSE (0000ms, 0646ms total)
T07CC 000:963 JLINK_IsHalted()  returns FALSE (0000ms, 0646ms total)
T07CC 000:964 JLINK_IsHalted()  returns FALSE (0000ms, 0646ms total)
T07CC 000:965 JLINK_IsHalted()  returns FALSE (0000ms, 0646ms total)
T07CC 000:967 JLINK_IsHalted()  returns FALSE (0000ms, 0646ms total)
T07CC 000:968 JLINK_IsHalted()  returns FALSE (0000ms, 0646ms total)
T07CC 000:969 JLINK_IsHalted()  returns FALSE (0000ms, 0646ms total)
T07CC 000:970 JLINK_IsHalted()  returns FALSE (0000ms, 0646ms total)
T07CC 000:971 JLINK_IsHalted()  returns FALSE (0000ms, 0646ms total)
T07CC 000:972 JLINK_IsHalted()  returns FALSE (0000ms, 0646ms total)
T07CC 000:973 JLINK_IsHalted()  returns FALSE (0000ms, 0646ms total)
T07CC 000:974 JLINK_IsHalted() -- CPU_ReadMem(2 bytes @ 0x20000000)  returns TRUE (0002ms, 0648ms total)
T07CC 000:976 JLINK_ReadReg(R15 (PC))  returns 0x20000000 (0000ms, 0646ms total)
T07CC 000:976 JLINK_ClrBPEx(BPHandle = 0x00000009)  returns 0x00 (0000ms, 0646ms total)
T07CC 000:976 JLINK_ReadReg(R0)  returns 0x00000000 (0000ms, 0646ms total)
T07CC 000:976 JLINK_WriteMem(0x20000164, 0x0400 Bytes, ...) - Data: 00 00 20 41 00 00 A0 40 00 00 C8 42 A0 DA 00 20 ... -- CPU_WriteMem(1024 bytes @ 0x20000164)  returns 0x400 (0004ms, 0650ms total)
T07CC 000:980 JLINK_WriteReg(R0, 0x08001400)  returns 0x00 (0000ms, 0650ms total)
T07CC 000:980 JLINK_WriteReg(R1, 0x00000400)  returns 0x00 (0000ms, 0650ms total)
T07CC 000:980 JLINK_WriteReg(R2, 0x20000164)  returns 0x00 (0000ms, 0650ms total)
T07CC 000:980 JLINK_WriteReg(R3, 0x00000000)  returns 0x00 (0000ms, 0650ms total)
T07CC 000:980 JLINK_WriteReg(R4, 0x00000000)  returns 0x00 (0000ms, 0650ms total)
T07CC 000:980 JLINK_WriteReg(R5, 0x00000000)  returns 0x00 (0000ms, 0650ms total)
T07CC 000:980 JLINK_WriteReg(R6, 0x00000000)  returns 0x00 (0000ms, 0650ms total)
T07CC 000:980 JLINK_WriteReg(R7, 0x00000000)  returns 0x00 (0000ms, 0650ms total)
T07CC 000:980 JLINK_WriteReg(R8, 0x00000000)  returns 0x00 (0000ms, 0650ms total)
T07CC 000:980 JLINK_WriteReg(R9, 0x20000160)  returns 0x00 (0000ms, 0650ms total)
T07CC 000:980 JLINK_WriteReg(R10, 0x00000000)  returns 0x00 (0000ms, 0650ms total)
T07CC 000:980 JLINK_WriteReg(R11, 0x00000000)  returns 0x00 (0000ms, 0650ms total)
T07CC 000:980 JLINK_WriteReg(R12, 0x00000000)  returns 0x00 (0000ms, 0650ms total)
T07CC 000:980 JLINK_WriteReg(R13 (SP), 0x20000800)  returns 0x00 (0000ms, 0650ms total)
T07CC 000:980 JLINK_WriteReg(R14, 0x20000001)  returns 0x00 (0000ms, 0650ms total)
T07CC 000:980 JLINK_WriteReg(R15 (PC), 0x200000F4)  returns 0x00 (0000ms, 0650ms total)
T07CC 000:980 JLINK_WriteReg(XPSR, 0x01000000)  returns 0x00 (0000ms, 0650ms total)
T07CC 000:980 JLINK_WriteReg(MSP, 0x20000800)  returns 0x00 (0000ms, 0650ms total)
T07CC 000:980 JLINK_WriteReg(PSP, 0x20000800)  returns 0x00 (0000ms, 0650ms total)
T07CC 000:980 JLINK_WriteReg(CFBP, 0x00000000)  returns 0x00 (0000ms, 0650ms total)
T07CC 000:980 JLINK_SetBPEx(Addr = 0x20000000, Type = 0xFFFFFFF2)  returns 0x0000000A (0000ms, 0650ms total)
T07CC 000:980 JLINK_Go() (0001ms, 0651ms total)
T07CC 000:981 JLINK_IsHalted()  returns FALSE (0000ms, 0651ms total)
T07CC 000:984 JLINK_IsHalted()  returns FALSE (0000ms, 0651ms total)
T07CC 000:985 JLINK_IsHalted()  returns FALSE (0000ms, 0651ms total)
T07CC 000:986 JLINK_IsHalted()  returns FALSE (0000ms, 0651ms total)
T07CC 000:987 JLINK_IsHalted()  returns FALSE (0000ms, 0651ms total)
T07CC 000:988 JLINK_IsHalted()  returns FALSE (0000ms, 0651ms total)
T07CC 000:989 JLINK_IsHalted()  returns FALSE (0000ms, 0651ms total)
T07CC 000:990 JLINK_IsHalted()  returns FALSE (0000ms, 0651ms total)
T07CC 000:991 JLINK_IsHalted()  returns FALSE (0000ms, 0651ms total)
T07CC 000:992 JLINK_IsHalted()  returns FALSE (0000ms, 0651ms total)
T07CC 000:993 JLINK_IsHalted()  returns FALSE (0000ms, 0651ms total)
T07CC 000:994 JLINK_IsHalted()  returns FALSE (0000ms, 0651ms total)
T07CC 000:995 JLINK_IsHalted()  returns FALSE (0000ms, 0651ms total)
T07CC 000:996 JLINK_IsHalted()  returns FALSE (0000ms, 0651ms total)
T07CC 000:997 JLINK_IsHalted()  returns FALSE (0000ms, 0651ms total)
T07CC 000:998 JLINK_IsHalted()  returns FALSE (0000ms, 0651ms total)
T07CC 000:999 JLINK_IsHalted()  returns FALSE (0000ms, 0651ms total)
T07CC 001:000 JLINK_IsHalted()  returns FALSE (0000ms, 0651ms total)
T07CC 001:001 JLINK_IsHalted()  returns FALSE (0000ms, 0651ms total)
T07CC 001:002 JLINK_IsHalted()  returns FALSE (0000ms, 0651ms total)
T07CC 001:003 JLINK_IsHalted()  returns FALSE (0000ms, 0651ms total)
T07CC 001:004 JLINK_IsHalted()  returns FALSE (0000ms, 0651ms total)
T07CC 001:005 JLINK_IsHalted()  returns FALSE (0000ms, 0651ms total)
T07CC 001:006 JLINK_IsHalted()  returns FALSE (0000ms, 0651ms total)
T07CC 001:007 JLINK_IsHalted()  returns FALSE (0000ms, 0651ms total)
T07CC 001:008 JLINK_IsHalted()  returns FALSE (0000ms, 0651ms total)
T07CC 001:009 JLINK_IsHalted()  returns FALSE (0000ms, 0651ms total)
T07CC 001:010 JLINK_IsHalted()  returns FALSE (0000ms, 0651ms total)
T07CC 001:011 JLINK_IsHalted()  returns FALSE (0000ms, 0651ms total)
T07CC 001:012 JLINK_IsHalted() -- CPU_ReadMem(2 bytes @ 0x20000000)  returns TRUE (0002ms, 0653ms total)
T07CC 001:014 JLINK_ReadReg(R15 (PC))  returns 0x20000000 (0000ms, 0651ms total)
T07CC 001:014 JLINK_ClrBPEx(BPHandle = 0x0000000A)  returns 0x00 (0000ms, 0651ms total)
T07CC 001:014 JLINK_ReadReg(R0)  returns 0x00000000 (0000ms, 0651ms total)
T07CC 001:014 JLINK_WriteMem(0x20000164, 0x0400 Bytes, ...) - Data: 02 A8 10 F0 1C F9 00 22 35 A1 10 46 0F F0 1C FE ... -- CPU_WriteMem(1024 bytes @ 0x20000164)  returns 0x400 (0004ms, 0655ms total)
T07CC 001:018 JLINK_WriteReg(R0, 0x08001800)  returns 0x00 (0000ms, 0655ms total)
T07CC 001:018 JLINK_WriteReg(R1, 0x00000400)  returns 0x00 (0000ms, 0655ms total)
T07CC 001:018 JLINK_WriteReg(R2, 0x20000164)  returns 0x00 (0000ms, 0655ms total)
T07CC 001:018 JLINK_WriteReg(R3, 0x00000000)  returns 0x00 (0000ms, 0655ms total)
T07CC 001:018 JLINK_WriteReg(R4, 0x00000000)  returns 0x00 (0000ms, 0655ms total)
T07CC 001:018 JLINK_WriteReg(R5, 0x00000000)  returns 0x00 (0000ms, 0655ms total)
T07CC 001:018 JLINK_WriteReg(R6, 0x00000000)  returns 0x00 (0000ms, 0655ms total)
T07CC 001:018 JLINK_WriteReg(R7, 0x00000000)  returns 0x00 (0000ms, 0655ms total)
T07CC 001:018 JLINK_WriteReg(R8, 0x00000000)  returns 0x00 (0000ms, 0655ms total)
T07CC 001:018 JLINK_WriteReg(R9, 0x20000160)  returns 0x00 (0000ms, 0655ms total)
T07CC 001:018 JLINK_WriteReg(R10, 0x00000000)  returns 0x00 (0000ms, 0655ms total)
T07CC 001:018 JLINK_WriteReg(R11, 0x00000000)  returns 0x00 (0000ms, 0655ms total)
T07CC 001:018 JLINK_WriteReg(R12, 0x00000000)  returns 0x00 (0000ms, 0655ms total)
T07CC 001:018 JLINK_WriteReg(R13 (SP), 0x20000800)  returns 0x00 (0000ms, 0655ms total)
T07CC 001:018 JLINK_WriteReg(R14, 0x20000001)  returns 0x00 (0000ms, 0655ms total)
T07CC 001:018 JLINK_WriteReg(R15 (PC), 0x200000F4)  returns 0x00 (0000ms, 0655ms total)
T07CC 001:018 JLINK_WriteReg(XPSR, 0x01000000)  returns 0x00 (0000ms, 0655ms total)
T07CC 001:018 JLINK_WriteReg(MSP, 0x20000800)  returns 0x00 (0000ms, 0655ms total)
T07CC 001:018 JLINK_WriteReg(PSP, 0x20000800)  returns 0x00 (0000ms, 0655ms total)
T07CC 001:018 JLINK_WriteReg(CFBP, 0x00000000)  returns 0x00 (0000ms, 0655ms total)
T07CC 001:018 JLINK_SetBPEx(Addr = 0x20000000, Type = 0xFFFFFFF2)  returns 0x0000000B (0000ms, 0655ms total)
T07CC 001:018 JLINK_Go() (0001ms, 0656ms total)
T07CC 001:019 JLINK_IsHalted()  returns FALSE (0001ms, 0657ms total)
T07CC 001:021 JLINK_IsHalted()  returns FALSE (0000ms, 0656ms total)
T07CC 001:026 JLINK_IsHalted()  returns FALSE (0000ms, 0656ms total)
T07CC 001:027 JLINK_IsHalted()  returns FALSE (0000ms, 0656ms total)
T07CC 001:028 JLINK_IsHalted()  returns FALSE (0000ms, 0656ms total)
T07CC 001:029 JLINK_IsHalted()  returns FALSE (0000ms, 0656ms total)
T07CC 001:030 JLINK_IsHalted()  returns FALSE (0000ms, 0656ms total)
T07CC 001:031 JLINK_IsHalted()  returns FALSE (0000ms, 0656ms total)
T07CC 001:032 JLINK_IsHalted()  returns FALSE (0000ms, 0656ms total)
T07CC 001:033 JLINK_IsHalted()  returns FALSE (0000ms, 0656ms total)
T07CC 001:034 JLINK_IsHalted()  returns FALSE (0000ms, 0656ms total)
T07CC 001:035 JLINK_IsHalted()  returns FALSE (0000ms, 0656ms total)
T07CC 001:036 JLINK_IsHalted()  returns FALSE (0000ms, 0656ms total)
T07CC 001:037 JLINK_IsHalted()  returns FALSE (0000ms, 0656ms total)
T07CC 001:038 JLINK_IsHalted()  returns FALSE (0000ms, 0656ms total)
T07CC 001:039 JLINK_IsHalted()  returns FALSE (0000ms, 0656ms total)
T07CC 001:041 JLINK_IsHalted()  returns FALSE (0000ms, 0656ms total)
T07CC 001:042 JLINK_IsHalted()  returns FALSE (0000ms, 0656ms total)
T07CC 001:043 JLINK_IsHalted()  returns FALSE (0000ms, 0656ms total)
T07CC 001:044 JLINK_IsHalted()  returns FALSE (0000ms, 0656ms total)
T07CC 001:045 JLINK_IsHalted()  returns FALSE (0000ms, 0656ms total)
T07CC 001:046 JLINK_IsHalted()  returns FALSE (0000ms, 0656ms total)
T07CC 001:047 JLINK_IsHalted()  returns FALSE (0000ms, 0656ms total)
T07CC 001:048 JLINK_IsHalted()  returns FALSE (0000ms, 0656ms total)
T07CC 001:049 JLINK_IsHalted()  returns FALSE (0000ms, 0656ms total)
T07CC 001:050 JLINK_IsHalted()  returns FALSE (0000ms, 0656ms total)
T07CC 001:051 JLINK_IsHalted() -- CPU_ReadMem(2 bytes @ 0x20000000)  returns TRUE (0002ms, 0658ms total)
T07CC 001:053 JLINK_ReadReg(R15 (PC))  returns 0x20000000 (0000ms, 0656ms total)
T07CC 001:053 JLINK_ClrBPEx(BPHandle = 0x0000000B)  returns 0x00 (0000ms, 0656ms total)
T07CC 001:053 JLINK_ReadReg(R0)  returns 0x00000000 (0000ms, 0656ms total)
T07CC 001:053 JLINK_WriteMem(0x20000164, 0x0400 Bytes, ...) - Data: E0 6A 15 F0 CD FA 82 46 49 46 15 F0 FD F8 07 46 ... -- CPU_WriteMem(1024 bytes @ 0x20000164)  returns 0x400 (0004ms, 0660ms total)
T07CC 001:057 JLINK_WriteReg(R0, 0x08001C00)  returns 0x00 (0000ms, 0660ms total)
T07CC 001:057 JLINK_WriteReg(R1, 0x00000400)  returns 0x00 (0000ms, 0660ms total)
T07CC 001:057 JLINK_WriteReg(R2, 0x20000164)  returns 0x00 (0000ms, 0660ms total)
T07CC 001:057 JLINK_WriteReg(R3, 0x00000000)  returns 0x00 (0000ms, 0660ms total)
T07CC 001:057 JLINK_WriteReg(R4, 0x00000000)  returns 0x00 (0000ms, 0660ms total)
T07CC 001:057 JLINK_WriteReg(R5, 0x00000000)  returns 0x00 (0001ms, 0661ms total)
T07CC 001:058 JLINK_WriteReg(R6, 0x00000000)  returns 0x00 (0000ms, 0661ms total)
T07CC 001:058 JLINK_WriteReg(R7, 0x00000000)  returns 0x00 (0000ms, 0661ms total)
T07CC 001:058 JLINK_WriteReg(R8, 0x00000000)  returns 0x00 (0000ms, 0661ms total)
T07CC 001:058 JLINK_WriteReg(R9, 0x20000160)  returns 0x00 (0000ms, 0661ms total)
T07CC 001:058 JLINK_WriteReg(R10, 0x00000000)  returns 0x00 (0000ms, 0661ms total)
T07CC 001:058 JLINK_WriteReg(R11, 0x00000000)  returns 0x00 (0000ms, 0661ms total)
T07CC 001:058 JLINK_WriteReg(R12, 0x00000000)  returns 0x00 (0000ms, 0661ms total)
T07CC 001:058 JLINK_WriteReg(R13 (SP), 0x20000800)  returns 0x00 (0000ms, 0661ms total)
T07CC 001:058 JLINK_WriteReg(R14, 0x20000001)  returns 0x00 (0000ms, 0661ms total)
T07CC 001:058 JLINK_WriteReg(R15 (PC), 0x200000F4)  returns 0x00 (0000ms, 0661ms total)
T07CC 001:058 JLINK_WriteReg(XPSR, 0x01000000)  returns 0x00 (0000ms, 0661ms total)
T07CC 001:058 JLINK_WriteReg(MSP, 0x20000800)  returns 0x00 (0000ms, 0661ms total)
T07CC 001:058 JLINK_WriteReg(PSP, 0x20000800)  returns 0x00 (0000ms, 0661ms total)
T07CC 001:058 JLINK_WriteReg(CFBP, 0x00000000)  returns 0x00 (0000ms, 0661ms total)
T07CC 001:058 JLINK_SetBPEx(Addr = 0x20000000, Type = 0xFFFFFFF2)  returns 0x0000000C (0000ms, 0661ms total)
T07CC 001:058 JLINK_Go() (0001ms, 0662ms total)
T07CC 001:059 JLINK_IsHalted()  returns FALSE (0001ms, 0663ms total)
T07CC 001:061 JLINK_IsHalted()  returns FALSE (0000ms, 0662ms total)
T07CC 001:062 JLINK_IsHalted()  returns FALSE (0000ms, 0662ms total)
T07CC 001:063 JLINK_IsHalted()  returns FALSE (0000ms, 0662ms total)
